time	V(v_cuad)	V(v_triag)
0.000000000000000e+00	1.060651e+00	1.436275e+00
9.999999960041972e-13	1.060651e+00	1.436275e+00
1.999999992008394e-12	1.060651e+00	1.436275e+00
3.999999984016789e-12	1.060651e+00	1.436275e+00
7.999999968033578e-12	1.060651e+00	1.436275e+00
1.599999993606716e-11	1.060651e+00	1.436275e+00
3.199999987213431e-11	1.060651e+00	1.436276e+00
6.399999974426862e-11	1.060651e+00	1.436275e+00
1.279999994885372e-10	1.060651e+00	1.436275e+00
2.559999989770745e-10	1.060651e+00	1.436275e+00
5.119999979541490e-10	1.060651e+00	1.436276e+00
1.023999995908298e-09	1.060651e+00	1.436276e+00
2.047999991816596e-09	1.060651e+00	1.436276e+00
4.095999983633192e-09	1.060651e+00	1.436276e+00
8.191999967266383e-09	1.060652e+00	1.436277e+00
1.638399993453277e-08	1.060652e+00	1.436278e+00
3.276799986906553e-08	1.060653e+00	1.436280e+00
6.553599973813107e-08	1.060654e+00	1.436283e+00
1.310719994762621e-07	1.060654e+00	1.436285e+00
2.243217118213430e-07	1.060655e+00	1.436286e+00
3.220605363510517e-07	1.060655e+00	1.436286e+00
4.220605363510517e-07	1.060655e+00	1.436286e+00
5.220605363510518e-07	1.060655e+00	1.436286e+00
6.220605363510518e-07	1.060655e+00	1.436286e+00
7.220605363510518e-07	1.060655e+00	1.436286e+00
8.220605363510518e-07	1.060655e+00	1.436286e+00
9.220605363510518e-07	1.060655e+00	1.436286e+00
1.022060536351052e-06	1.060655e+00	1.436286e+00
1.122060536351052e-06	1.060655e+00	1.436286e+00
1.222060536351052e-06	1.060655e+00	1.436286e+00
1.322060536351052e-06	1.060654e+00	1.436285e+00
1.422060536351051e-06	1.060654e+00	1.436285e+00
1.522060536351051e-06	1.060654e+00	1.436285e+00
1.622060536351051e-06	1.060654e+00	1.436285e+00
1.722060536351051e-06	1.060654e+00	1.436285e+00
1.822060536351051e-06	1.060654e+00	1.436285e+00
1.922060536351051e-06	1.060654e+00	1.436285e+00
2.022060536351051e-06	1.060654e+00	1.436285e+00
2.122060536351051e-06	1.060654e+00	1.436285e+00
2.222060536351051e-06	1.060654e+00	1.436285e+00
2.322060536351050e-06	1.060654e+00	1.436285e+00
2.422060536351050e-06	1.060654e+00	1.436285e+00
2.522060536351050e-06	1.060654e+00	1.436285e+00
2.622060536351050e-06	1.060654e+00	1.436285e+00
2.722060536351050e-06	1.060654e+00	1.436285e+00
2.822060536351050e-06	1.060654e+00	1.436285e+00
2.922060536351050e-06	1.060654e+00	1.436284e+00
3.022060536351050e-06	1.060654e+00	1.436284e+00
3.122060536351050e-06	1.060654e+00	1.436284e+00
3.222060536351049e-06	1.060654e+00	1.436284e+00
3.322060536351049e-06	1.060654e+00	1.436284e+00
3.422060536351049e-06	1.060654e+00	1.436284e+00
3.522060536351049e-06	1.060654e+00	1.436284e+00
3.622060536351049e-06	1.060654e+00	1.436284e+00
3.722060536351049e-06	1.060654e+00	1.436284e+00
3.822060536351049e-06	1.060654e+00	1.436284e+00
3.922060536351049e-06	1.060654e+00	1.436284e+00
4.022060536351049e-06	1.060654e+00	1.436284e+00
4.122060536351048e-06	1.060654e+00	1.436284e+00
4.222060536351048e-06	1.060654e+00	1.436285e+00
4.322060536351048e-06	1.060654e+00	1.436285e+00
4.422060536351048e-06	1.060654e+00	1.436285e+00
4.522060536351048e-06	1.060654e+00	1.436285e+00
4.622060536351048e-06	1.060654e+00	1.436285e+00
4.722060536351048e-06	1.060654e+00	1.436285e+00
4.822060536351048e-06	1.060654e+00	1.436286e+00
4.922060536351048e-06	1.060654e+00	1.436286e+00
5.022060536351047e-06	1.060654e+00	1.436286e+00
5.122060536351047e-06	1.060655e+00	1.436287e+00
5.222060536351047e-06	1.060655e+00	1.436287e+00
5.322060536351047e-06	1.060655e+00	1.436288e+00
5.422060536351047e-06	1.060655e+00	1.436289e+00
5.522060536351047e-06	1.060655e+00	1.436290e+00
5.622060536351047e-06	1.060656e+00	1.436291e+00
5.722060536351047e-06	1.060657e+00	1.436294e+00
5.822060536351047e-06	1.060660e+00	1.436304e+00
5.922060536351046e-06	1.060686e+00	1.436376e+00
6.022060536351046e-06	1.060885e+00	1.436941e+00
6.122060536351046e-06	1.061916e+00	1.439859e+00
6.222060536351046e-06	1.064885e+00	1.448281e+00
6.322060536351046e-06	1.070596e+00	1.464558e+00
6.422060536351046e-06	1.078921e+00	1.488601e+00
6.522060536351046e-06	1.088591e+00	1.517477e+00
6.622060536351046e-06	1.098861e+00	1.550549e+00
6.722060536351046e-06	1.110325e+00	1.591990e+00
6.822060536351045e-06	1.122864e+00	1.641364e+00
6.922060536351045e-06	1.135582e+00	1.693376e+00
7.022060536351045e-06	1.147886e+00	1.745545e+00
7.122060536351045e-06	1.159317e+00	1.797189e+00
7.222060536351045e-06	1.169601e+00	1.847171e+00
7.322060536351045e-06	1.182032e+00	1.894681e+00
7.334560536351045e-06	1.184576e+00	1.901043e+00
7.359560536351045e-06	1.191582e+00	1.914875e+00
7.409560536351045e-06	1.224149e+00	1.941855e+00
7.417467543169137e-06	1.234779e+00	1.946119e+00
7.433281556805318e-06	1.266375e+00	1.954828e+00
7.437235060214364e-06	1.278172e+00	1.957057e+00
7.445142067032455e-06	1.308872e+00	1.961639e+00
7.460956080668637e-06	1.459204e+00	1.972427e+00
7.464453283032798e-06	1.544190e+00	1.975875e+00
7.471447687761120e-06	2.025366e+00	1.988546e+00
7.473196288943201e-06	2.512934e+00	2.000675e+00
7.473633439238721e-06	2.694461e+00	2.004851e+00
7.474507739829761e-06	3.175267e+00	2.016088e+00
7.476256341011841e-06	3.265323e+00	2.025884e+00
7.478627316582353e-06	3.259628e+00	2.019630e+00
7.482466331123443e-06	3.254652e+00	2.013962e+00
7.486480635537906e-06	3.251331e+00	2.010017e+00
7.494509244366832e-06	3.250337e+00	2.007989e+00
7.510566462024684e-06	3.255108e+00	2.011189e+00
7.534576372156773e-06	3.266354e+00	2.020730e+00
7.575465332725397e-06	3.287400e+00	2.039479e+00
7.633268360797561e-06	3.319514e+00	2.068606e+00
7.700218204088173e-06	3.356877e+00	2.102435e+00
7.783280315076264e-06	3.403473e+00	2.144482e+00
7.883280315076265e-06	3.459109e+00	2.194365e+00
7.983280315076265e-06	3.514755e+00	2.243914e+00
8.083280315076266e-06	3.569947e+00	2.292579e+00
8.183280315076267e-06	3.625113e+00	2.340672e+00
8.283280315076268e-06	3.679799e+00	2.387535e+00
8.383280315076268e-06	3.734351e+00	2.433171e+00
8.483280315076269e-06	3.788259e+00	2.476370e+00
8.583280315076270e-06	3.841599e+00	2.515542e+00
8.683280315076270e-06	3.892839e+00	2.542731e+00
8.783280315076271e-06	3.916933e+00	2.394255e+00
8.883280315076272e-06	3.916398e+00	2.087564e+00
8.946667319801162e-06	3.950882e+00	2.115960e+00
8.991840941805958e-06	3.978261e+00	2.152805e+00
9.012023208806482e-06	3.988629e+00	2.156533e+00
9.030971166477354e-06	3.997646e+00	2.156448e+00
9.058302614282916e-06	4.010112e+00	2.152050e+00
9.083799412747586e-06	4.021644e+00	2.147803e+00
9.111681303537083e-06	4.034309e+00	2.143132e+00
9.140126174261545e-06	4.047456e+00	2.140272e+00
9.175389127350399e-06	4.063876e+00	2.137008e+00
9.226175056985815e-06	4.087702e+00	2.133867e+00
9.279349257943605e-06	4.112579e+00	2.129696e+00
9.334872205133710e-06	4.138543e+00	2.125654e+00
9.414100610305735e-06	4.175507e+00	2.118732e+00
9.514100610305735e-06	4.222206e+00	2.110499e+00
9.614100610305736e-06	4.268805e+00	2.101210e+00
9.714100610305737e-06	4.315422e+00	2.092181e+00
9.814100610305737e-06	4.361989e+00	2.082090e+00
9.914100610305738e-06	4.408643e+00	2.072296e+00
1.001410061030574e-05	4.455388e+00	2.061483e+00
1.011410061030574e-05	4.502644e+00	2.051056e+00
1.021410061030574e-05	4.551579e+00	2.039954e+00
1.031410061030574e-05	4.602788e+00	2.029942e+00
1.041410061030574e-05	4.657046e+00	2.020138e+00
1.051410061030574e-05	4.709627e+00	2.011419e+00
1.061410061030574e-05	4.760250e+00	2.001178e+00
1.071410061030574e-05	4.808871e+00	1.989715e+00
1.081410061030574e-05	4.854313e+00	1.975689e+00
1.091410061030575e-05	4.743450e+00	1.939996e+00
1.100994680578742e-05	4.606164e+00	1.859831e+00
1.102244680578742e-05	4.601521e+00	1.845839e+00
1.104744680578742e-05	4.594168e+00	1.817507e+00
1.109744680578742e-05	4.588429e+00	1.767189e+00
1.109761850762868e-05	4.588436e+00	1.767040e+00
1.109796191131121e-05	4.588457e+00	1.766743e+00
1.109864871867628e-05	4.588434e+00	1.766151e+00
1.109882042051754e-05	4.327236e+00	1.762456e+00
1.109886334597786e-05	3.783110e+00	1.758581e+00
1.109894919689849e-05	2.590430e+00	1.745826e+00
1.109912089873975e-05	3.348054e-01	1.706333e+00
1.109913212130393e-05	3.281614e-01	1.703673e+00
1.109914708472283e-05	3.209167e-01	1.700582e+00
1.109917701156064e-05	3.100573e-01	1.695802e+00
1.109923686523625e-05	3.051093e-01	1.690275e+00
1.109935657258747e-05	3.042569e-01	1.686864e+00
1.109959598728991e-05	3.035365e-01	1.686555e+00
1.110007481669479e-05	3.028919e-01	1.686412e+00
1.110103247550456e-05	3.025718e-01	1.685974e+00
1.110294779312409e-05	3.026989e-01	1.685336e+00
1.110578557451728e-05	3.028472e-01	1.684509e+00
1.111146113730367e-05	3.027342e-01	1.683570e+00
1.112068372296874e-05	3.025553e-01	1.683328e+00
1.113418582619628e-05	3.025224e-01	1.685229e+00
1.115367305730994e-05	3.025168e-01	1.691111e+00
1.115677067160341e-05	3.025242e-01	1.692397e+00
1.116296590019036e-05	3.025434e-01	1.695101e+00
1.116451470733710e-05	3.025492e-01	1.695824e+00
1.116761232163057e-05	3.025663e-01	1.697308e+00
1.116838672520394e-05	3.025726e-01	1.697690e+00
1.116993553235067e-05	3.025895e-01	1.698465e+00
1.117032273413736e-05	3.025955e-01	1.698661e+00
1.117109713771072e-05	3.026103e-01	1.699056e+00
1.117264594485746e-05	3.026815e-01	1.699858e+00
1.117303314664414e-05	3.027295e-01	1.700061e+00
1.117312994709082e-05	3.027440e-01	1.700112e+00
1.117332354798416e-05	3.027793e-01	1.700215e+00
1.117371074977084e-05	3.028608e-01	1.700420e+00
1.117380755021751e-05	3.029368e-01	1.700472e+00
1.117400115111085e-05	3.031402e-01	1.700578e+00
1.117438835289754e-05	3.033941e-01	1.700789e+00
1.117516275647091e-05	3.033225e-01	1.701205e+00
1.117671156361764e-05	3.029279e-01	1.702041e+00
1.117883718696255e-05	3.027139e-01	1.703219e+00
1.118294203070812e-05	3.026567e-01	1.705580e+00
1.118901528157164e-05	3.026691e-01	1.709262e+00
1.120116178329869e-05	3.026865e-01	1.717186e+00
1.122545478675277e-05	3.027157e-01	1.734277e+00
1.125838998486915e-05	3.027499e-01	1.756719e+00
1.129812877228286e-05	3.027671e-01	1.778625e+00
1.133772698599866e-05	3.027686e-01	1.795214e+00
1.138593469036811e-05	3.027610e-01	1.812642e+00
1.144020224585364e-05	3.027606e-01	1.832378e+00
1.149782680734408e-05	3.027641e-01	1.854452e+00
1.155662926994262e-05	3.027722e-01	1.877426e+00
1.162941266484951e-05	3.027781e-01	1.905742e+00
1.172494379134339e-05	3.027881e-01	1.942739e+00
1.182494379134339e-05	3.027964e-01	1.981491e+00
1.192494379134339e-05	3.028075e-01	2.020268e+00
1.202494379134339e-05	3.028162e-01	2.059039e+00
1.212494379134339e-05	3.028274e-01	2.097812e+00
1.222494379134339e-05	3.028364e-01	2.136590e+00
1.232494379134339e-05	3.028476e-01	2.175367e+00
1.242494379134340e-05	3.028567e-01	2.214146e+00
1.242650629134339e-05	3.028574e-01	2.214752e+00
1.242963129134339e-05	3.028578e-01	2.215964e+00
1.243041254134339e-05	3.028578e-01	2.216267e+00
1.243060785384340e-05	3.028578e-01	2.216343e+00
1.243099847884339e-05	3.028578e-01	2.216494e+00
1.243101315592727e-05	3.028578e-01	2.216500e+00
1.243104251009503e-05	3.028576e-01	2.216511e+00
1.243110121843053e-05	3.028292e-01	2.216534e+00
1.243119863198695e-05	3.026527e-01	2.216570e+00
1.243121233473996e-05	3.026321e-01	2.216575e+00
1.243123974024598e-05	3.025483e-01	2.216584e+00
1.243124659162249e-05	3.025206e-01	2.216587e+00
1.243126029437550e-05	3.024618e-01	2.216591e+00
1.243126372006375e-05	3.024457e-01	2.216593e+00
1.243127057144026e-05	3.024177e-01	2.216595e+00
1.243128427419327e-05	3.023703e-01	2.216599e+00
1.243131167969930e-05	3.022841e-01	2.216608e+00
1.243136649071135e-05	3.021320e-01	2.216625e+00
1.243147611273545e-05	3.018945e-01	2.216660e+00
1.243169535678365e-05	3.016112e-01	2.216733e+00
1.243213384488006e-05	3.014849e-01	2.216892e+00
1.243286770108850e-05	3.017887e-01	2.217178e+00
1.243397221234091e-05	3.023371e-01	2.217617e+00
1.243569317105384e-05	3.026928e-01	2.218287e+00
1.243854110266550e-05	3.027409e-01	2.219375e+00
1.244315123462683e-05	3.027338e-01	2.221114e+00
1.245237149854950e-05	3.027462e-01	2.224528e+00
1.247081202639483e-05	3.027680e-01	2.231190e+00
1.249223378003253e-05	3.027978e-01	2.238851e+00
1.251876912145400e-05	3.028264e-01	2.248558e+00
1.254910155585092e-05	3.028498e-01	2.260160e+00
1.259170483285765e-05	3.028683e-01	2.277186e+00
1.265237655200142e-05	3.028809e-01	2.301786e+00
1.275237655200142e-05	3.028912e-01	2.341303e+00
1.285237655200142e-05	3.029003e-01	2.379889e+00
1.295237655200142e-05	3.029108e-01	2.418590e+00
1.305237655200142e-05	3.029212e-01	2.457439e+00
1.315237655200142e-05	3.029316e-01	2.496222e+00
1.325237655200142e-05	3.029418e-01	2.534996e+00
1.335237655200142e-05	3.029523e-01	2.573786e+00
1.345237655200142e-05	3.029625e-01	2.612574e+00
1.355237655200142e-05	3.029730e-01	2.651359e+00
1.365237655200142e-05	3.029831e-01	2.690147e+00
1.375237655200142e-05	3.029937e-01	2.728935e+00
1.385237655200142e-05	3.030040e-01	2.767723e+00
1.395237655200143e-05	3.030149e-01	2.806514e+00
1.405237655200143e-05	3.030255e-01	2.845307e+00
1.415237655200143e-05	3.030373e-01	2.884107e+00
1.425237655200143e-05	3.030498e-01	2.922920e+00
1.435237655200143e-05	3.030650e-01	2.961757e+00
1.445237655200143e-05	3.030842e-01	3.000640e+00
1.455237655200143e-05	3.031125e-01	3.039608e+00
1.465237655200143e-05	3.031565e-01	3.078730e+00
1.475237655200143e-05	3.032313e-01	3.118100e+00
1.485237655200143e-05	3.033637e-01	3.157810e+00
1.495237655200143e-05	3.036314e-01	3.197786e+00
1.496487655200143e-05	3.036860e-01	3.202776e+00
1.498987655200143e-05	3.038266e-01	3.212706e+00
1.503987655200143e-05	3.046465e-01	3.232343e+00
1.504534530200143e-05	3.052374e-01	3.234468e+00
1.504690780200143e-05	3.064477e-01	3.235096e+00
1.504729842700143e-05	3.573367e-01	3.236170e+00
1.504739608325143e-05	7.510182e-01	3.240364e+00
1.504759139575143e-05	2.343827e+00	3.261414e+00
1.504798202075143e-05	4.628399e+00	3.316527e+00
1.504802711366427e-05	4.629335e+00	3.319809e+00
1.504811729948993e-05	4.630188e+00	3.324017e+00
1.504829767114127e-05	4.628356e+00	3.325004e+00
1.504865841444394e-05	4.621604e+00	3.321142e+00
1.504937990104928e-05	4.611604e+00	3.314512e+00
1.505082287425997e-05	4.605626e+00	3.310048e+00
1.505370882068135e-05	4.606868e+00	3.310461e+00
1.505750341416225e-05	4.608081e+00	3.310540e+00
1.506495362699044e-05	4.609740e+00	3.309860e+00
1.507612894394305e-05	4.611109e+00	3.307264e+00
1.509302274173706e-05	4.611378e+00	3.300750e+00
1.511718283329670e-05	4.610084e+00	3.287758e+00
1.514734448130404e-05	4.607448e+00	3.267679e+00
1.518474446849532e-05	4.604567e+00	3.241679e+00
1.523069638848077e-05	4.602623e+00	3.215401e+00
1.527573989250767e-05	4.602246e+00	3.196357e+00
1.532359293379341e-05	4.602331e+00	3.179228e+00
1.537705978331244e-05	4.602424e+00	3.160058e+00
1.544127740788896e-05	4.602287e+00	3.136321e+00
1.553179231806938e-05	4.602079e+00	3.102507e+00
1.563179231806938e-05	4.601858e+00	3.065470e+00
1.573179231806937e-05	4.601686e+00	3.028378e+00
1.583179231806937e-05	4.601461e+00	2.991322e+00
1.593179231806937e-05	4.601281e+00	2.954214e+00
1.603179231806937e-05	4.601066e+00	2.917186e+00
1.613179231806937e-05	4.600875e+00	2.880082e+00
1.623179231806937e-05	4.600663e+00	2.843058e+00
1.633179231806937e-05	4.600477e+00	2.805964e+00
1.643179231806937e-05	4.600256e+00	2.768948e+00
1.653179231806937e-05	4.600071e+00	2.731861e+00
1.663179231806937e-05	4.599848e+00	2.694850e+00
1.673179231806937e-05	4.599665e+00	2.657772e+00
1.683179231806936e-05	4.599447e+00	2.620769e+00
1.693179231806936e-05	4.599259e+00	2.583699e+00
1.703179231806936e-05	4.599041e+00	2.546704e+00
1.713179231806936e-05	4.598852e+00	2.509641e+00
1.723179231806936e-05	4.598638e+00	2.472654e+00
1.733179231806936e-05	4.598446e+00	2.435599e+00
1.743179231806936e-05	4.598228e+00	2.398618e+00
1.753179231806936e-05	4.598037e+00	2.361571e+00
1.763179231806936e-05	4.597820e+00	2.324596e+00
1.773179231806936e-05	4.597628e+00	2.287557e+00
1.783179231806935e-05	4.597410e+00	2.250589e+00
1.793179231806935e-05	4.597218e+00	2.213555e+00
1.803179231806935e-05	4.597000e+00	2.176589e+00
1.813179231806935e-05	4.596804e+00	2.139554e+00
1.823179231806935e-05	4.596584e+00	2.102579e+00
1.833179231806935e-05	4.596381e+00	2.065520e+00
1.843179231806935e-05	4.596155e+00	2.028491e+00
1.853179231806935e-05	4.595937e+00	1.991331e+00
1.863179231806935e-05	4.595680e+00	1.954115e+00
1.873179231806935e-05	4.595413e+00	1.916628e+00
1.883179231806935e-05	4.595080e+00	1.878896e+00
1.893179231806934e-05	4.594752e+00	1.840715e+00
1.903179231806934e-05	4.594708e+00	1.802319e+00
1.904429231806934e-05	4.594723e+00	1.797498e+00
1.906929231806934e-05	4.594720e+00	1.787917e+00
1.907007356806934e-05	4.594718e+00	1.787618e+00
1.907163606806934e-05	4.594708e+00	1.787020e+00
1.907202669306934e-05	4.594702e+00	1.786871e+00
1.907280794306934e-05	4.594666e+00	1.786571e+00
1.907300325556934e-05	4.594630e+00	1.786496e+00
1.907339388056934e-05	4.412891e+00	1.783685e+00
1.907349153681934e-05	3.746844e+00	1.776011e+00
1.907368684931934e-05	2.034231e+00	1.749691e+00
1.907371068270957e-05	1.771765e+00	1.744904e+00
1.907375834949001e-05	1.213594e+00	1.734875e+00
1.907377026618513e-05	1.061157e+00	1.732196e+00
1.907379409957535e-05	7.464076e-01	1.726728e+00
1.907380005792290e-05	6.639653e-01	1.725321e+00
1.907381197461802e-05	4.975235e-01	1.722481e+00
1.907381495379180e-05	4.586363e-01	1.721763e+00
1.907382091213935e-05	4.062347e-01	1.720340e+00
1.907383282883446e-05	3.684413e-01	1.717630e+00
1.907385666222469e-05	3.423314e-01	1.712932e+00
1.907390432900514e-05	3.192209e-01	1.706148e+00
1.907399966256603e-05	3.055236e-01	1.699446e+00
1.907419032968783e-05	3.047606e-01	1.696633e+00
1.907457166393141e-05	3.043829e-01	1.696859e+00
1.907533433241858e-05	3.040732e-01	1.696503e+00
1.907685966939291e-05	3.036285e-01	1.696319e+00
1.907991034334159e-05	3.031206e-01	1.695883e+00
1.908472584026993e-05	3.027566e-01	1.696101e+00
1.909361843159981e-05	3.025590e-01	1.697942e+00
1.910559894521266e-05	3.025095e-01	1.703464e+00
1.910792900151902e-05	3.025089e-01	1.704848e+00
1.911258911413175e-05	3.025083e-01	1.707916e+00
1.912190933935719e-05	3.025240e-01	1.715061e+00
1.912423939566355e-05	3.025331e-01	1.717049e+00
1.912482190974014e-05	3.025359e-01	1.717554e+00
1.912598693789332e-05	3.025430e-01	1.718575e+00
1.912627819493162e-05	3.025452e-01	1.718834e+00
1.912686070900821e-05	3.025505e-01	1.719352e+00
1.912802573716139e-05	3.025701e-01	1.720401e+00
1.912831699419968e-05	3.025804e-01	1.720666e+00
1.912889950827627e-05	3.025709e-01	1.721197e+00
1.912904513679542e-05	3.025973e-01	1.721330e+00
1.912933639383372e-05	3.027798e-01	1.721600e+00
1.912991890791031e-05	3.028170e-01	1.722141e+00
1.913108393606349e-05	3.026066e-01	1.723221e+00
1.913295033487214e-05	3.026719e-01	1.724986e+00
1.913608270782165e-05	3.026338e-01	1.728006e+00
1.914050977004224e-05	3.026887e-01	1.732384e+00
1.914936389448343e-05	3.026811e-01	1.741352e+00
1.916707214336581e-05	3.027707e-01	1.759032e+00
1.919589061744630e-05	3.028008e-01	1.783690e+00
1.922636872346536e-05	3.028615e-01	1.802578e+00
1.926732286050999e-05	3.028283e-01	1.819974e+00
1.931604223742494e-05	3.028445e-01	1.836496e+00
1.936464073976099e-05	3.028072e-01	1.853524e+00
1.941567690734487e-05	3.028415e-01	1.872937e+00
1.948876122838456e-05	3.028211e-01	1.901557e+00
1.958876122838456e-05	3.028615e-01	1.940484e+00
1.968672601285269e-05	3.028415e-01	1.978417e+00
1.978672601285269e-05	3.028803e-01	2.017227e+00
1.979922601285269e-05	3.028677e-01	2.022079e+00
1.982422601285269e-05	3.028698e-01	2.031783e+00
1.983047601285269e-05	3.028706e-01	2.034209e+00
1.984297601285269e-05	3.028718e-01	2.039059e+00
1.986797601285269e-05	3.028743e-01	2.048759e+00
1.986875726285269e-05	3.028744e-01	2.049062e+00
1.987031976285269e-05	3.028745e-01	2.049669e+00
1.987071038785269e-05	3.028746e-01	2.049820e+00
1.987080804410269e-05	3.028746e-01	2.049858e+00
1.987100335660269e-05	3.028746e-01	2.049934e+00
1.987105218472769e-05	3.028746e-01	2.049953e+00
1.987114984097769e-05	3.028745e-01	2.049991e+00
1.987117425504019e-05	3.028734e-01	2.050000e+00
1.987122308316519e-05	3.028514e-01	2.050019e+00
1.987132073941519e-05	3.027200e-01	2.050056e+00
1.987133536988208e-05	3.026874e-01	2.050061e+00
1.987136463081585e-05	3.026375e-01	2.050071e+00
1.987142315268340e-05	3.024822e-01	2.050091e+00
